date Tue Apr 12 08:55:37 AM 2022
base hex timestamps absolute
no internal events logged
// TOOLING version 3.15.1.50
//BusMapping: CAN 1 = IuK_CAN

0.985210 1 36f Rx d 5 f2 f7 fe ff 14 Length = 0 BitCount = 0 ID = 879
0.985500 1 126 Rx d 8 00 8c 3e 00 fa 64 00 ff Length = 0 BitCount = 0 ID = 294
0.985735 1 f3 Rx d 8 a9 0a 00 00 f0 c4 00 80 Length = 0 BitCount = 0 ID = 243
0.986119 1 5e3 Rx d 8 10 05 00 03 00 ff ff ff Length = 0 BitCount = 0 ID = 1507
0.988697 1 2ae Rx d 8 ff 00 ff 00 e8 a3 64 00 Length = 0 BitCount = 0 ID = 686
0.990000 1 2a6 Rx d 2 00 f8 Length = 0 BitCount = 0 ID = 678
0.991904 1 3fd Rx d 5 cf 06 00 fc df Length = 0 BitCount = 0 ID = 1021
0.993977 1 d9 Rx d 8 ff ff ff ff ff ff ff ff Length = 0 BitCount = 0 ID = 217
0.994683 1 ca Rx d 8 5b 2c 00 00 00 00 fd f7 Length = 0 BitCount = 0 ID = 202
0.995206 1 a5 Rx d 8 41 05 ff f7 ff 00 00 c1 Length = 0 BitCount = 0 ID = 165
0.995896 1 1b3 Rx d 8 c0 2b 01 00 f0 ff ff 00 Length = 0 BitCount = 0 ID = 435
0.996136 1 6d Rx d 8 20 12 05 00 00 00 1e d3 Length = 0 BitCount = 0 ID = 109
0.996825 1 83 Rx d 8 ff 7f ff 7f ff 7f ff 7f Length = 0 BitCount = 0 ID = 131
0.997851 1 6d Rx d 8 28 c7 05 00 21 8e e0 68 Length = 0 BitCount = 0 ID = 109
1.000088 1 460 Rx d 8 f6 7f 53 3a 97 00 10 da Length = 0 BitCount = 0 ID = 1120
1.000270 1 1a1 Rx d 5 d0 c5 00 00 fa Length = 0 BitCount = 0 ID = 417
1.000507 1 175 Rx d 8 00 f0 10 c9 00 00 5f 46 Length = 0 BitCount = 0 ID = 373
1.001821 1 5e3 Rx d 8 11 00 00 09 00 00 c0 00 Length = 0 BitCount = 0 ID = 1507
1.003779 1 8f Rx d 8 ff ff 00 7d fc ff ff ff Length = 0 BitCount = 0 ID = 143
1.005290 1 3c Rx d 8 d0 54 00 02 01 00 e5 ff Length = 0 BitCount = 0 ID = 60
1.005534 1 126 Rx d 8 00 8c 3e 00 fa 64 00 ff Length = 0 BitCount = 0 ID = 294
1.005771 1 f3 Rx d 8 f4 0b 00 00 f0 c4 00 80 Length = 0 BitCount = 0 ID = 243
1.008695 1 2ae Rx d 8 ff 00 ff 00 e8 a3 64 00 Length = 0 BitCount = 0 ID = 686
1.010048 1 2a7 Rx d 5 c0 fd fe ff 14 Length = 0 BitCount = 0 ID = 679
1.011516 1 1bb Rx d 8 ff ff 00 ff ff ff ff ff Length = 0 BitCount = 0 ID = 443
1.012088 1 34a Rx d 8 91 1a 3a 08 b9 0c 45 22 Length = 0 BitCount = 0 ID = 842
1.013709 1 412 Rx d 8 09 7c 7b 82 33 41 57 8a Length = 0 BitCount = 0 ID = 1042
1.014009 1 d9 Rx d 8 ff ff ff ff ff ff ff ff Length = 0 BitCount = 0 ID = 217
1.015236 1 a5 Rx d 8 fb 07 ff f7 ff 00 00 c1 Length = 0 BitCount = 0 ID = 165
1.015464 1 253 Rx d 8 63 0e 63 64 60 0e f8 f0 Length = 0 BitCount = 0 ID = 595
1.016857 1 83 Rx d 8 ff 7f ff 7f ff 7f ff 7f Length = 0 BitCount = 0 ID = 131
1.017107 1 26b Rx d 8 ff ff ff ff ff ff ff ff Length = 0 BitCount = 0 ID = 619
1.017287 1 2bb Rx d 5 a3 f5 09 00 f2 Length = 0 BitCount = 0 ID = 699
1.020052 1 1a1 Rx d 5 6a c6 00 00 fa Length = 0 BitCount = 0 ID = 417
1.020387 1 175 Rx d 8 00 f0 10 c9 00 00 6f 0c Length = 0 BitCount = 0 ID = 373
1.020677 1 d8 Rx d 2 c0 ff Length = 0 BitCount = 0 ID = 216
1.025320 1 126 Rx d 8 00 8c 3e 00 fa 64 00 ff Length = 0 BitCount = 0 ID = 294
1.025558 1 f3 Rx d 8 7a 0c 00 00 f0 c4 00 80 Length = 0 BitCount = 0 ID = 243
1.028695 1 2ae Rx d 8 ff 00 ff 00 e8 a3 64 00 Length = 0 BitCount = 0 ID = 686
1.032119 1 34c Rx d 8 f8 01 00 00 1f f5 f7 ff Length = 0 BitCount = 0 ID = 844
1.033724 1 510 Rx d 8 40 10 10 00 00 02 01 00 Length = 0 BitCount = 0 ID = 1296
1.034002 1 d9 Rx d 8 ff ff ff ff ff ff ff ff Length = 0 BitCount = 0 ID = 217
1.034598 1 1ae Rx d 3 0c aa 0a Length = 0 BitCount = 0 ID = 430
1.035189 1 a5 Rx d 8 fa 09 ff f7 ff 00 00 c1 Length = 0 BitCount = 0 ID = 165
1.036805 1 83 Rx d 8 ff 7f ff 7f ff 7f ff 7f Length = 0 BitCount = 0 ID = 131
1.037052 1 173 Rx d 8 ff ff ff ff ff ff ff c0 Length = 0 BitCount = 0 ID = 371
1.038804 1 1ee Rx d 2 00 ff Length = 0 BitCount = 0 ID = 494
1.040019 1 2a5 Rx d 2 08 a4 Length = 0 BitCount = 0 ID = 677
1.040205 1 1a1 Rx d 5 f7 c7 00 00 fa Length = 0 BitCount = 0 ID = 417
1.040445 1 175 Rx d 8 00 f0 10 c9 00 00 7f c1 Length = 0 BitCount = 0 ID = 373
1.041734 1 376 Rx d 3 1e 14 11 Length = 0 BitCount = 0 ID = 886
1.043734 1 8f Rx d 8 ff ff 00 7d fc ff ff ff Length = 0 BitCount = 0 ID = 143
1.043977 1 3ee Rx d 8 5e de ff ff ff bf fb ff Length = 0 BitCount = 0 ID = 1006
1.045283 1 c4 Rx d 8 05 e0 00 00 00 00 c8 00 Length = 0 BitCount = 0 ID = 196
1.045527 1 126 Rx d 8 00 8c 3e 00 fa 64 00 ff Length = 0 BitCount = 0 ID = 294
1.045764 1 f3 Rx d 8 27 0d 00 00 f0 c4 00 80 Length = 0 BitCount = 0 ID = 243
1.045942 1 231 Rx d 5 bb 2a fe ff 28 Length = 0 BitCount = 0 ID = 561
1.046183 1 284 Rx d 8 c8 80 0c 10 00 ff ff 0f Length = 0 BitCount = 0 ID = 644
1.046429 1 2c4 Rx d 8 00 00 14 ff ff ff 3f ff Length = 0 BitCount = 0 ID = 708
1.048685 1 2ae Rx d 8 ff 00 ff 00 e8 a3 64 00 Length = 0 BitCount = 0 ID = 686
1.053988 1 d9 Rx d 8 ff ff ff ff ff ff ff ff Length = 0 BitCount = 0 ID = 217
1.055249 1 a5 Rx d 8 40 0b ff f7 ff 00 00 c1 Length = 0 BitCount = 0 ID = 165
1.055447 1 33e Rx d 6 33 5b 91 f1 3f 88 Length = 0 BitCount = 0 ID = 830
1.056830 1 83 Rx d 8 ff 7f ff 7f ff 7f ff 7f Length = 0 BitCount = 0 ID = 131
1.060032 1 1a1 Rx d 5 9f c8 00 00 fa Length = 0 BitCount = 0 ID = 417
1.060355 1 175 Rx d 8 00 f0 10 c9 00 00 8f be Length = 0 BitCount = 0 ID = 373
1.061517 1 1c0 Rx d 8 3e 39 00 50 63 54 55 57 Length = 0 BitCount = 0 ID = 448
1.065122 1 36e Rx d 5 3d f7 fe ff 14 Length = 0 BitCount = 0 ID = 878
1.065366 1 126 Rx d 8 00 8c 3e 00 fa 64 00 ff Length = 0 BitCount = 0 ID = 294
1.065607 1 f3 Rx d 8 c0 0e 00 00 f0 c4 00 80 Length = 0 BitCount = 0 ID = 243
1.067837 1 1f784250x Rx d 8 00 64 07 ff 00 00 7f f8 Length = 0 BitCount = 0 ID = 527974992x
1.068696 1 2ae Rx d 8 ff 00 ff 00 e8 a3 64 00 Length = 0 BitCount = 0 ID = 686
1.073971 1 d9 Rx d 8 ff ff ff ff ff ff ff ff Length = 0 BitCount = 0 ID = 217
1.074697 1 ca Rx d 8 06 2d 00 00 00 00 fd f7 Length = 0 BitCount = 0 ID = 202
1.075181 1 a5 Rx d 8 93 0d ff f7 ff 00 00 c1 Length = 0 BitCount = 0 ID = 165
1.076926 1 83 Rx d 8 ff 7f ff 7f ff 7f ff 7f Length = 0 BitCount = 0 ID = 131
1.077766 1 199 Rx d 6 ff ff de 7e ff ff Length = 0 BitCount = 0 ID = 409
1.078661 1 314 Rx d 5 f1 42 09 fe f6 Length = 0 BitCount = 0 ID = 788
1.080061 1 1a1 Rx d 5 02 c9 00 00 fa Length = 0 BitCount = 0 ID = 417
1.080298 1 175 Rx d 8 00 f0 10 c9 00 00 9f 73 Length = 0 BitCount = 0 ID = 373
1.080536 1 163 Rx d 8 ff ff 05 25 dc 24 ff ff Length = 0 BitCount = 0 ID = 355
1.080786 1 200 Rx d 8 0f 08 7d ff ff ff ff ff Length = 0 BitCount = 0 ID = 512
1.081013 1 3b3 Rx d 7 ff ff ff ff ff f3 f8 Length = 0 BitCount = 0 ID = 947
1.081851 1 38d Rx d 8 ff ff ff ff cb ff ff ff Length = 0 BitCount = 0 ID = 909
1.082692 1 40f Rx d 4 26 37 08 f1 Length = 0 BitCount = 0 ID = 1039
1.083796 1 8f Rx d 8 ff ff 00 7d fc ff ff ff Length = 0 BitCount = 0 ID = 143
1.085479 1 126 Rx d 8 00 8c 3e 00 fa 64 00 ff Length = 0 BitCount = 0 ID = 294
1.085719 1 f3 Rx d 8 c1 00 00 00 f0 c4 00 80 Length = 0 BitCount = 0 ID = 243
1.085959 1 592 Rx d 8 29 ff 0f 10 ff ff ff ff Length = 0 BitCount = 0 ID = 1426
1.088708 1 2ae Rx d 8 ff 00 ff 00 e8 a3 64 00 Length = 0 BitCount = 0 ID = 686
1.090057 1 2a7 Rx d 5 7a fe fe ff 14 Length = 0 BitCount = 0 ID = 679
1.090633 1 304 Rx d 6 ff ff 53 3a f3 ff Length = 0 BitCount = 0 ID = 772
1.091999 1 3fd Rx d 5 52 07 00 fc df Length = 0 BitCount = 0 ID = 1021
1.092308 1 43d Rx d 8 fe fe ef ff f6 fe fe f7 Length = 0 BitCount = 0 ID = 1085
1.094092 1 d9 Rx d 8 ff ff ff ff ff ff ff ff Length = 0 BitCount = 0 ID = 217
1.095243 1 a5 Rx d 8 75 00 ff f7 ff 00 00 c1 Length = 0 BitCount = 0 ID = 165
1.095487 1 1b9 Rx d 8 0a ff 00 ff 00 ff ff ff Length = 0 BitCount = 0 ID = 441
1.095889 1 1b3 Rx d 8 c0 2b 01 00 f0 ff ff 00 Length = 0 BitCount = 0 ID = 435
1.096836 1 83 Rx d 8 ff 7f ff 7f ff 7f ff 7f Length = 0 BitCount = 0 ID = 131
1.097860 1 297 Rx d 7 d1 f3 90 80 9c fc a8 Length = 0 BitCount = 0 ID = 663
